 ****** HSPICE -- H-2013.03 64-BIT (Mar  7 2013) win64 ******                   
  Copyright (C) 2013 Synopsys, Inc. All Rights Reserved.                        
  Unpublished-rights reserved under US copyright laws.
  This program is protected by law and is subject to the
  terms and conditions of the license agreement from Synopsys.
  Use of this program is your acceptance to be bound by the
  license agreement. HSPICE is the trademark of Synopsys, Inc.
  Input File: vth.sp                                                            
  Command line options: -i vth.sp -o vth.lis
  lic:  
  lic: FLEXlm: v10.9.8 
  lic: USER:   Dell                 HOSTNAME: DESKTOP-O3DHVG1 
  lic: HOSTID: "28f10e041fd4 a0d37a293ca4 a0d37a293ca5" PID:      13156 
  lic: Using FLEXlm license file: 
  lic: C:\synopsys\Hspice_H-2013.03\lic.dat\lic.lic 
  lic: Checkout 1 hspice 
  lic: License/Maintenance for hspice will expire on 31-dec-2019/2019.12 
  lic: NODE LOCKED license on hostid "28f10e041fd4 a0d37a293ca4 a0d37a293ca5" 
  lic:   
 Init: read install configuration file: C:\synopsys\Hspice_H-2013.03\meta.cfg
 scientific notation:
 a=10**-18  f=10**-15  p=10**-12  n=10**-9  u=10**-6
 m=10**-3   k=10**3    x=10**6    g=10**9 
1****** HSPICE -- H-2013.03 64-BIT (Mar  7 2013) win64 ******                   
 ******  
 'inverter'

  ******  circuit name directory
 circuit number to circuit name directory
   number circuitname                     definition         multiplier
        0 main circuit


 circuit parameter definitions
  parameter          =  value 

     0:temp                                                    = 2.700e+01      
     0:m_cnt                                                   = 1.000e+00      
     0:wg                                                      = 4.000e-09      
     0:cb                                                      = 4.000e-11      
     0:lg                                                      = 3.200e-08      
     0:lgef                                                    = 1.000e-07      
     0:vfn                                                     = 0.000e+00      
     0:vfp                                                     = 0.000e+00      
     0:m                                                       = 1.400e+01      
     0:n                                                       = 0.000e+00      
     0:hox                                                     = 4.000e-09      
     1:tox                                                     = 4.000e-09      
     1:csub                                                    = 4.000e-11      
     1:vfbp                                                    = 0.000e+00      
     1:pitch                                                   = 2.000e-08      
     1:n1                                                      = 1.400e+01      
     1:n2                                                      = 0.000e+00      
     1:kgate                                                   = 1.600e+01      
     1:dout                                                    = 0.000e+00      
     1:sout                                                    = 0.000e+00      
     1:tubes                                                   = 1.000e+00      
     1:lch                                                     = 3.200e-08      
     1:lgeff                                                   = 1.000e-07      
     1:lss                                                     = 3.200e-08      
     1:ldd                                                     = 3.200e-08      




 constants  - tnom         kt           vt           gapsi        ni
            2.9815e+02   4.1163e-21   2.5692e-02   1.1156e+00   1.2565e+16 

 **warning**  associated with encrypted block(s) were suppressed due to encrypted content

1****** HSPICE -- H-2013.03 64-BIT (Mar  7 2013) win64 ******                   
 ******  
 'inverter'

  ******  circuit element summary tnom=  25.000 temp=  25.000 *****


 **** independent sources

     name         node1        node2      dc volt    ac mag    ac phase    type
  vdd  vdd               0                  9.000e-01  0.000e+00  0.000e+00 dc   
  vin  in                0                 -9.000e-01  0.000e+00  0.000e+00 dc   


 **** subcircuit calls
    name        subcircuit         external nodes


         0:xcnt2    pcnfet          0:vdd         0:in          0:0       
                               0:0       


  
1****** HSPICE -- H-2013.03 64-BIT (Mar  7 2013) win64 ******                   
 ******  
 'inverter'

  ******  element node table
                            
 0                vdd vin   
 in               vin       
 vdd              vdd       
  **warning** PIVOT option setting is simplified, pivot = 13 is obsolete,
              automatically switch to pivot = 1.
 *****************************************************************
 ******  option summary
 ******
 runlvl  = 3         bypass  = 2         
  Opening plot unit= 79
 file=vth.pa0

 ******  
 'inverter'

  ******  dc transfer curves tnom=  25.000 temp=  25.000 *****
x

        volt    voltage      current    
                    in           vdd    
  0.0000e+00    0.000e+00   -9.475e-06  
 -1.0000e-02   -1.000e-02   -9.835e-06  
 -2.0000e-02   -2.000e-02   -1.020e-05  
 -3.0000e-02   -3.000e-02   -1.057e-05  
 -4.0000e-02   -4.000e-02   -1.094e-05  
 -5.0000e-02   -5.000e-02   -1.131e-05  
 -6.0000e-02   -6.000e-02   -1.169e-05  
 -7.0000e-02   -7.000e-02   -1.207e-05  
 -8.0000e-02   -8.000e-02   -1.245e-05  
 -9.0000e-02   -9.000e-02   -1.284e-05  
 -1.0000e-01   -1.000e-01   -1.322e-05  
 -1.1000e-01   -1.100e-01   -1.361e-05  
 -1.2000e-01   -1.200e-01   -1.400e-05  
 -1.3000e-01   -1.300e-01   -1.439e-05  
 -1.4000e-01   -1.400e-01   -1.478e-05  
 -1.5000e-01   -1.500e-01   -1.518e-05  
 -1.6000e-01   -1.600e-01   -1.557e-05  
 -1.7000e-01   -1.700e-01   -1.596e-05  
 -1.8000e-01   -1.800e-01   -1.636e-05  
 -1.9000e-01   -1.900e-01   -1.675e-05  
 -2.0000e-01   -2.000e-01   -1.715e-05  
 -2.1000e-01   -2.100e-01   -1.755e-05  
 -2.2000e-01   -2.200e-01   -1.794e-05  
 -2.3000e-01   -2.300e-01   -1.833e-05  
 -2.4000e-01   -2.400e-01   -1.870e-05  
 -2.5000e-01   -2.500e-01   -1.907e-05  
 -2.6000e-01   -2.600e-01   -1.942e-05  
 -2.7000e-01   -2.700e-01   -1.974e-05  
 -2.8000e-01   -2.800e-01   -2.003e-05  
 -2.9000e-01   -2.900e-01   -2.029e-05  
 -3.0000e-01   -3.000e-01   -2.053e-05  
 -3.1000e-01   -3.100e-01   -2.073e-05  
 -3.2000e-01   -3.200e-01   -2.092e-05  
 -3.3000e-01   -3.300e-01   -2.108e-05  
 -3.4000e-01   -3.400e-01   -2.122e-05  
 -3.5000e-01   -3.500e-01   -2.135e-05  
 -3.6000e-01   -3.600e-01   -2.146e-05  
 -3.7000e-01   -3.700e-01   -2.156e-05  
 -3.8000e-01   -3.800e-01   -2.165e-05  
 -3.9000e-01   -3.900e-01   -2.174e-05  
 -4.0000e-01   -4.000e-01   -2.181e-05  
 -4.1000e-01   -4.100e-01   -2.188e-05  
 -4.2000e-01   -4.200e-01   -2.195e-05  
 -4.3000e-01   -4.300e-01   -2.201e-05  
 -4.4000e-01   -4.400e-01   -2.206e-05  
 -4.5000e-01   -4.500e-01   -2.211e-05  
 -4.6000e-01   -4.600e-01   -2.215e-05  
 -4.7000e-01   -4.700e-01   -2.219e-05  
 -4.8000e-01   -4.800e-01   -2.222e-05  
 -4.9000e-01   -4.900e-01   -2.226e-05  
 -5.0000e-01   -5.000e-01   -2.228e-05  
 -5.1000e-01   -5.100e-01   -2.231e-05  
 -5.2000e-01   -5.200e-01   -2.233e-05  
 -5.3000e-01   -5.300e-01   -2.234e-05  
 -5.4000e-01   -5.400e-01   -2.236e-05  
 -5.5000e-01   -5.500e-01   -2.236e-05  
 -5.6000e-01   -5.600e-01   -2.237e-05  
 -5.7000e-01   -5.700e-01   -2.237e-05  
 -5.8000e-01   -5.800e-01   -2.237e-05  
 -5.9000e-01   -5.900e-01   -2.236e-05  
 -6.0000e-01   -6.000e-01   -2.235e-05  
 -6.1000e-01   -6.100e-01   -2.234e-05  
 -6.2000e-01   -6.200e-01   -2.233e-05  
 -6.3000e-01   -6.300e-01   -2.232e-05  
 -6.4000e-01   -6.400e-01   -2.231e-05  
 -6.5000e-01   -6.500e-01   -2.230e-05  
 -6.6000e-01   -6.600e-01   -2.229e-05  
 -6.7000e-01   -6.700e-01   -2.228e-05  
 -6.8000e-01   -6.800e-01   -2.227e-05  
 -6.9000e-01   -6.900e-01   -2.227e-05  
 -7.0000e-01   -7.000e-01   -2.226e-05  
 -7.1000e-01   -7.100e-01   -2.227e-05  
 -7.2000e-01   -7.200e-01   -2.227e-05  
 -7.3000e-01   -7.300e-01   -2.228e-05  
 -7.4000e-01   -7.400e-01   -2.229e-05  
 -7.5000e-01   -7.500e-01   -2.231e-05  
 -7.6000e-01   -7.600e-01   -2.233e-05  
 -7.7000e-01   -7.700e-01   -2.235e-05  
 -7.8000e-01   -7.800e-01   -2.237e-05  
 -7.9000e-01   -7.900e-01   -2.239e-05  
 -8.0000e-01   -8.000e-01   -2.242e-05  
 -8.1000e-01   -8.100e-01   -2.244e-05  
 -8.2000e-01   -8.200e-01   -2.246e-05  
 -8.3000e-01   -8.300e-01   -2.247e-05  
 -8.4000e-01   -8.400e-01   -2.248e-05  
 -8.5000e-01   -8.500e-01   -2.249e-05  
 -8.6000e-01   -8.600e-01   -2.249e-05  
 -8.7000e-01   -8.700e-01   -2.249e-05  
 -8.8000e-01   -8.800e-01   -2.248e-05  
 -8.9000e-01   -8.900e-01   -2.246e-05  
 -9.0000e-01   -9.000e-01   -2.244e-05  
y
-----------------------------------------------

          ***** job concluded
1****** HSPICE -- H-2013.03 64-BIT (Mar  7 2013) win64 ******                   
 ******  
 'inverter'

  ******  job statistics summary tnom=  25.000 temp=  25.000 *****

  ******  HSPICE Threads Information  ******

  Command Line Threads Count :     1
  Available CPU Count        :     4
  Actual Threads Count       :     1


  ******  Circuit Statistics  ******
  # nodes       =      35 # elements   =      71
  # resistors   =      12 # capacitors =      29 # inductors   =       0
  # mutual_inds =       0 # vccs       =       8 # vcvs        =      18
  # cccs        =       0 # ccvs       =       0 # volt_srcs   =       4
  # curr_srcs   =       0 # diodes     =       0 # bjts        =       0
  # jfets       =       0 # mosfets    =       0 # U elements  =       0
  # T elements  =       0 # W elements =       0 # B elements  =       0
  # S elements  =       0 # P elements =       0 # va device   =       0
  # vector_srcs =       0 # N elements =       0


  ******  Runtime Statistics (seconds)  ******

  analysis           time    # points   tot. iter  conv.iter
  op point           0.00           1           0
  dc sweep           0.23          91         199
  readin             0.02
  errchk             0.03
  setup              0.00
  output             0.00


           peak memory used         39.04 megabytes
           total cpu time            0.27 seconds
           total elapsed time        0.30 seconds
           job started at     22:57:36 02/27/2018
           job ended   at     22:57:37 02/27/2018


  lic: Release hspice token(s) 
 lic: total license checkout elapse time:        0.02(s)
